
Circuit: .options savecurrents

Doing analysis at TEMP = 27.000000 and TNOM = 27.000000


No. of Data Rows : 1
********************************************
Operating point
********************************************
Doing analysis at TEMP = 27.000000 and TNOM = 27.000000


Initial Transient Solution
--------------------------

Node                                   Voltage
----                                   -------
vcc                                         12
in                                           0
in2                                          0
base                                   2.24831
coll                                   8.98375
emit                                    1.5219
emit2                                  9.69188
out                                          0
vin#branch                                   0
vcc#branch                          -0.0267844


No. of Data Rows : 1008

The file "vo1.ps" may be printed on a postscript printer.
Doing analysis at TEMP = 27.000000 and TNOM = 27.000000


No. of Data Rows : 71

The file "vo1f.ps" may be printed on a postscript printer.

The file "vo2f.ps" may be printed on a postscript printer.
vo2f_FIG
v(out)/v(in)
                             .options savecurrents
                             AC Analysis  Sun May 23 19:01:52  2021
--------------------------------------------------------------------------------
Index   frequency       v(out)/v(in)                    
--------------------------------------------------------------------------------
0	1.000000e+01	3.294061e+00,	-1.42061e+01	
1	1.258925e+01	1.679225e-01,	-1.90066e+01	
2	1.584893e+01	-4.98869e+00,	-2.29773e+01	
3	1.995262e+01	-1.14800e+01,	-2.51562e+01	
4	2.511886e+01	-1.81905e+01,	-2.52378e+01	
5	3.162278e+01	-2.41659e+01,	-2.35993e+01	
6	3.981072e+01	-2.89309e+01,	-2.09339e+01	
7	5.011872e+01	-3.24440e+01,	-1.78879e+01	
8	6.309573e+01	-3.48981e+01,	-1.49002e+01	
9	7.943282e+01	-3.65517e+01,	-1.22030e+01	
10	1.000000e+02	-3.76400e+01,	-9.88414e+00	
11	1.258925e+02	-3.83454e+01,	-7.94902e+00	
12	1.584893e+02	-3.87981e+01,	-6.36351e+00	
13	1.995262e+02	-3.90868e+01,	-5.07923e+00	
14	2.511886e+02	-3.92702e+01,	-4.04635e+00	
15	3.162278e+02	-3.93865e+01,	-3.21929e+00	
16	3.981072e+02	-3.94600e+01,	-2.55882e+00	
17	5.011872e+02	-3.95065e+01,	-2.03217e+00	
18	6.309573e+02	-3.95358e+01,	-1.61252e+00	
19	7.943282e+02	-3.95544e+01,	-1.27812e+00	
20	1.000000e+03	-3.95661e+01,	-1.01148e+00	
21	1.258925e+03	-3.95735e+01,	-7.98556e-01	
22	1.584893e+03	-3.95781e+01,	-6.28075e-01	
23	1.995262e+03	-3.95811e+01,	-4.91002e-01	
24	2.511886e+03	-3.95829e+01,	-3.80058e-01	
25	3.162278e+03	-3.95841e+01,	-2.89343e-01	
26	3.981072e+03	-3.95848e+01,	-2.14032e-01	
27	5.011872e+03	-3.95852e+01,	-1.50116e-01	
28	6.309573e+03	-3.95855e+01,	-9.41934e-02	
29	7.943282e+03	-3.95856e+01,	-4.32864e-02	
30	1.000000e+04	-3.95856e+01,	5.315567e-03	
31	1.258925e+04	-3.95856e+01,	5.420056e-02	
32	1.584893e+04	-3.95854e+01,	1.059715e-01	
33	1.995262e+04	-3.95850e+01,	1.633849e-01	
34	2.511886e+04	-3.95845e+01,	2.294971e-01	
35	3.162278e+04	-3.95836e+01,	3.078270e-01	
36	3.981072e+04	-3.95821e+01,	4.025420e-01	
37	5.011872e+04	-3.95798e+01,	5.186781e-01	
38	6.309573e+04	-3.95762e+01,	6.624044e-01	
39	7.943282e+04	-3.95703e+01,	8.413438e-01	
40	1.000000e+05	-3.95611e+01,	1.064963e+00	
41	1.258925e+05	-3.95466e+01,	1.345048e+00	
42	1.584893e+05	-3.95235e+01,	1.696267e+00	
43	1.995262e+05	-3.94869e+01,	2.136834e+00	
44	2.511886e+05	-3.94290e+01,	2.689233e+00	
45	3.162278e+05	-3.93376e+01,	3.380946e+00	
46	3.981072e+05	-3.91935e+01,	4.244974e+00	
47	5.011872e+05	-3.89667e+01,	5.319775e+00	
48	6.309573e+05	-3.86115e+01,	6.647815e+00	
49	7.943282e+05	-3.80589e+01,	8.271259e+00	
50	1.000000e+06	-3.72082e+01,	1.022236e+01	
51	1.258925e+06	-3.59197e+01,	1.250501e+01	
52	1.584893e+06	-3.40151e+01,	1.506414e+01	
53	1.995262e+06	-3.12996e+01,	1.774439e+01	
54	2.511886e+06	-2.76214e+01,	2.025336e+01	

Index   frequency       v(out)/v(in)                    
--------------------------------------------------------------------------------
55	3.162278e+06	-2.29740e+01,	2.216778e+01	
56	3.981072e+06	-1.76003e+01,	2.302904e+01	
57	5.011872e+06	-1.20080e+01,	2.252472e+01	
58	6.309573e+06	-6.83213e+00,	2.065278e+01	
59	7.943282e+06	-2.60867e+00,	1.773681e+01	
60	1.000000e+07	3.852529e-01,	1.428394e+01	
61	1.258925e+07	2.148516e+00,	1.080468e+01	
62	1.584893e+07	2.880651e+00,	7.693914e+00	
63	1.995262e+07	2.885952e+00,	5.181887e+00	
64	2.511886e+07	2.484054e+00,	3.331745e+00	
65	3.162278e+07	1.936744e+00,	2.075329e+00	
66	3.981072e+07	1.410006e+00,	1.276077e+00	
67	5.011872e+07	9.790177e-01,	7.900254e-01	
68	6.309573e+07	6.584154e-01,	5.010482e-01	
69	7.943282e+07	4.337560e-01,	3.293424e-01	
70	1.000000e+08	2.822147e-01,	2.253694e-01	
lco                 =  2.053951e+01
uco                 =  4.254308e+06
u: no such command available in ngspice
-v(in2)[40]/vin#branch[40] = 3.835487e+02,-3.38447e+01

The file "zin.ps" may be printed on a postscript printer.
zin_FIG

The file "zin_db.ps" may be printed on a postscript printer.
ngspice-31 done
